
T10D0 000:287 SEGGER J-Link V5.10h Log File (0000ms, 0261ms total)
T10D0 000:287 DLL Compiled: Jan 21 2016 19:24:29 (0000ms, 0261ms total)
T10D0 000:287 Logging started @ 2017-07-22 11:18 (0000ms, 0261ms total)
T10D0 000:287 JLINK_SetWarnOutHandler(...) (0000ms, 0261ms total)
T10D0 000:287 JLINK_OpenEx(...)
Firmware: J-Link ARM-OB STM32 compiled Aug 22 2012 19:52:04
Hardware: V7.00
S/N: 17040739
Feature(s): RDI,FlashDL,FlashBP,JFlash,GDBFull  returns O.K. (0262ms, 0523ms total)
T10D0 000:549 JLINK_SetErrorOutHandler(...) (0000ms, 0523ms total)
T10D0 000:549 JLINK_ExecCommand("ProjectFile = "C:\Users\ncer\Desktop\×ùÍ·¾¨³ÌÐò3\JLinkSettings.ini"", ...)  returns 0x00 (0001ms, 0524ms total)
T10D0 000:550 JLINK_ExecCommand("Device = STM32F103RC", ...)Device "STM32F103RC" selected.  returns 0x00 (0001ms, 0525ms total)
T10D0 000:551 JLINK_ExecCommand("DisableConnectionTimeout", ...)  returns 0x01 (0000ms, 0525ms total)
T10D0 000:551 JLINK_GetHardwareVersion()  returns 0x11170 (0000ms, 0525ms total)
T10D0 000:551 JLINK_GetDLLVersion()  returns 51008 (0000ms, 0525ms total)
T10D0 000:551 JLINK_GetFirmwareString(...) (0000ms, 0525ms total)
T10D0 000:551 JLINK_GetDLLVersion()  returns 51008 (0000ms, 0525ms total)
T10D0 000:551 JLINK_GetCompileDateTime() (0000ms, 0525ms total)
T10D0 000:551 JLINK_GetFirmwareString(...) (0000ms, 0525ms total)
T10D0 000:552 JLINK_GetHardwareVersion()  returns 0x11170 (0000ms, 0525ms total)
T10D0 000:552 JLINK_TIF_Select(JLINKARM_TIF_SWD)  returns 0x00 (0001ms, 0526ms total)
T10D0 000:553 JLINK_SetSpeed(50000) (0000ms, 0526ms total)
T10D0 000:553 JLINK_GetId() >0x108 TIF>Found SWD-DP with ID 0x1BA01477 >0x0D TIF> >0x28 TIF> >0x0D TIF> >0x28 TIF> >0x0D TIF> >0x28 TIF> >0x0D TIF> >0x28 TIF> >0x0D TIF> >0x21 TIF> >0x0D TIF> >0x28 TIF> >0x0D TIF> >0x28 TIF> >0x0D TIF> >0x28 TIF> >0x0D TIF> >0x21 TIF> >0x0D TIF> >0x21 TIF> >0x0D TIF> >0x28 TIF> >0x0D TIF> >0x21 TIF> >0x0D TIF> >0x21 TIF> >0x0D TIF> >0x28 TIF> >0x0D TIF> >0x21 TIF> >0x0D TIF> >0x21 TIF> >0x0D TIF> >0x28 TIF> >0x0D TIF> >0x21 TIF> >0x0D TIF> >0x21 TIF> >0x108 TIF>
Found SWD-DP with ID 0x1BA01477 >0x0D TIF> >0x28 TIF> >0x0D TIF> >0x28 TIF> >0x0D TIF> >0x28 TIF> >0x0D TIF> >0x28 TIF> >0x0D TIF> >0x21 TIF> >0x0D TIF> >0x28 TIF> >0x0D TIF> >0x28 TIF> >0x0D TIF> >0x21 TIF> >0x0D TIF> >0x21 TIF> >0x0D TIF> >0x21 TIF> >0x0D TIF> >0x28 TIF> >0x0D TIF> >0x28 TIF> >0x0D TIF> >0x28 TIF> >0x0D TIF> >0x21 TIF> >0x0D TIF> >0x21 TIF> >0x0D TIF> >0x28 TIF> >0x0D TIF> >0x21 TIF> >0x0D TIF> >0x21 TIF>Found Cortex-M3 r1p1, Little endian. -- CPU_ReadMem(4 bytes @ 0xE000EDF0)
 -- CPU_ReadMem(4 bytes @ 0xE0002000)FPUnit: 6 code (BP) slots and 2 literal slots -- CPU_ReadMem(4 bytes @ 0xE000EDFC) -- CPU_ReadMem(4 bytes @ 0xE0001000) -- CPU_WriteMem(4 bytes @ 0xE0001000) -- CPU_ReadMem(4 bytes @ 0xE000ED88) -- CPU_WriteMem(4 bytes @ 0xE000ED88) -- CPU_ReadMem(4 bytes @ 0xE000ED88) -- CPU_WriteMem(4 bytes @ 0xE000ED88)CoreSight components:ROMTbl 0 @ E00FF000 -- CPU_ReadMem(16 bytes @ 0xE00FF000) -- CPU_ReadMem(16 bytes @ 0xE000EFF0) -- CPU_ReadMem(16 bytes @ 0xE000EFE0)
ROMTbl 0 [0]: FFF0F000, CID: B105E00D, PID: 001BB000 SCS -- CPU_ReadMem(16 bytes @ 0xE0001FF0) -- CPU_ReadMem(16 bytes @ 0xE0001FE0)ROMTbl 0 [1]: FFF02000, CID: B105E00D, PID: 001BB002 DWT -- CPU_ReadMem(16 bytes @ 0xE0002FF0) -- CPU_ReadMem(16 bytes @ 0xE0002FE0)ROMTbl 0 [2]: FFF03000, CID: B105E00D, PID: 000BB003 FPB -- CPU_ReadMem(16 bytes @ 0xE0000FF0) -- CPU_ReadMem(16 bytes @ 0xE0000FE0)ROMTbl 0 [3]: FFF01000, CID: B105E00D, PID: 001BB001 ITM -- CPU_ReadMem(16 bytes @ 0xE00FF010)
 -- CPU_ReadMem(16 bytes @ 0xE0040FF0) -- CPU_ReadMem(16 bytes @ 0xE0040FE0)ROMTbl 0 [4]: FFF41000, CID: B105900D, PID: 001BB923 TPIU-Lite -- CPU_ReadMem(16 bytes @ 0xE0041FF0) -- CPU_ReadMem(16 bytes @ 0xE0041FE0)ROMTbl 0 [5]: FFF42000, CID: B105900D, PID: 101BB924 ETM-M3 >0x0D TIF> >0x21 TIF>  returns 0x1BA01477 (0040ms, 0566ms total)
T10D0 000:593 JLINK_GetDLLVersion()  returns 51008 (0000ms, 0566ms total)
T10D0 000:593 JLINK_CORE_GetFound()  returns 0x30000FF (0000ms, 0566ms total)
T10D0 000:593 JLINK_GetDebugInfo(0x100) -- Value=0xE00FF000  returns 0x00 (0000ms, 0566ms total)
T10D0 000:594 JLINK_GetDebugInfo(0x100) -- Value=0xE00FF000  returns 0x00 (0000ms, 0566ms total)
T10D0 000:594 JLINK_GetDebugInfo(0x101) -- Value=0xE0041000  returns 0x00 (0000ms, 0566ms total)
T10D0 000:594 JLINK_GetDebugInfo(0x102) -- Value=0x00000000  returns 0x00 (0000ms, 0566ms total)
T10D0 000:594 JLINK_GetDebugInfo(0x103) -- Value=0xE0040000  returns 0x00 (0000ms, 0566ms total)
T10D0 000:594 JLINK_GetDebugInfo(0x104) -- Value=0xE0000000  returns 0x00 (0000ms, 0566ms total)
T10D0 000:594 JLINK_GetDebugInfo(0x105) -- Value=0xE0001000  returns 0x00 (0000ms, 0566ms total)
T10D0 000:594 JLINK_GetDebugInfo(0x106) -- Value=0xE0002000  returns 0x00 (0000ms, 0566ms total)
T10D0 000:594 JLINK_GetDebugInfo(0x107) -- Value=0xE000E000  returns 0x00 (0000ms, 0566ms total)
T10D0 000:594 JLINK_GetDebugInfo(0x10C) -- Value=0xE000EDF0  returns 0x00 (0000ms, 0566ms total)
T10D0 000:594 JLINK_ReadMemU32(0xE000ED00, 0x0001 Items, ...) -- CPU is running -- CPU_ReadMem(4 bytes @ 0xE000ED00) - Data: 31 C2 1F 41  returns 0x01 (0001ms, 0567ms total)
T10D0 000:595 JLINK_SetResetType(JLINKARM_RESET_TYPE_NORMAL)  returns JLINKARM_RESET_TYPE_NORMAL (0000ms, 0567ms total)
T10D0 000:595 JLINK_Reset() -- CPU is running -- CPU_WriteMem(4 bytes @ 0xE000EDF0) -- CPU is running -- CPU_WriteMem(4 bytes @ 0xE000EDFC) >0x35 TIF> -- CPU is running -- CPU_WriteMem(4 bytes @ 0xE000ED0C) -- CPU is running -- CPU_ReadMem(4 bytes @ 0xE000EDF0) -- CPU is running -- CPU_ReadMem(4 bytes @ 0xE000EDF0) -- CPU is running -- CPU_WriteMem(4 bytes @ 0xE000EDF0) -- CPU is running -- CPU_WriteMem(4 bytes @ 0xE000EDFC) -- CPU is running -- CPU_ReadMem(4 bytes @ 0xE000EDF0)
 -- CPU_WriteMem(4 bytes @ 0xE0002000) -- CPU_ReadMem(4 bytes @ 0xE000EDFC) -- CPU_ReadMem(4 bytes @ 0xE0001000) (0018ms, 0585ms total)
T10D0 000:613 JLINK_ReadReg(R15 (PC))  returns 0x08000278 (0000ms, 0585ms total)
T10D0 000:613 JLINK_ReadReg(XPSR)  returns 0x01000000 (0000ms, 0585ms total)
T10D0 000:613 JLINK_Halt()  returns 0x00 (0000ms, 0585ms total)
T10D0 000:613 JLINK_IsHalted()  returns TRUE (0000ms, 0585ms total)
T10D0 000:613 JLINK_ReadMemU32(0xE000EDF0, 0x0001 Items, ...) -- CPU_ReadMem(4 bytes @ 0xE000EDF0) - Data: 03 00 03 00  returns 0x01 (0001ms, 0586ms total)
T10D0 000:614 JLINK_WriteU32(0xE000EDF0, 0xA05F0003) -- CPU_WriteMem(4 bytes @ 0xE000EDF0)  returns 0x00 (0000ms, 0586ms total)
T10D0 000:614 JLINK_WriteU32(0xE000EDFC, 0x01000000) -- CPU_WriteMem(4 bytes @ 0xE000EDFC)  returns 0x00 (0001ms, 0587ms total)
T10D0 000:616 JLINK_GetHWStatus(...)  returns 0x00 (0000ms, 0587ms total)
T10D0 000:616 JLINK_GetNumBPUnits(Type = 0xFFFFFF00)  returns 0x06 (0000ms, 0587ms total)
T10D0 000:616 JLINK_GetNumBPUnits(Type = 0xF0)  returns 0x2000 (0000ms, 0587ms total)
T10D0 000:616 JLINK_GetNumWPUnits()  returns 0x04 (0000ms, 0587ms total)
T10D0 000:617 JLINK_GetSpeed()  returns 0xFA0 (0000ms, 0587ms total)
T10D0 000:618 JLINK_ReadMemU32(0xE000E004, 0x0001 Items, ...) -- CPU_ReadMem(4 bytes @ 0xE000E004) - Data: 01 00 00 00  returns 0x01 (0000ms, 0587ms total)
T10D0 000:618 JLINK_ReadMemU32(0xE000E004, 0x0001 Items, ...) -- CPU_ReadMem(4 bytes @ 0xE000E004) - Data: 01 00 00 00  returns 0x01 (0001ms, 0588ms total)
T10D0 000:619 JLINK_WriteMem(0xE0001000, 0x001C Bytes, ...) - Data: 01 00 00 00 00 00 00 00 00 00 00 00 00 00 00 00 ... -- CPU_WriteMem(28 bytes @ 0xE0001000)  returns 0x1C (0001ms, 0589ms total)
T10D0 000:620 JLINK_ReadMem (0xE0001000, 0x001C Bytes, ...) -- CPU_ReadMem(28 bytes @ 0xE0001000) - Data: 01 00 00 40 00 00 00 00 00 00 00 00 00 00 00 00 ...  returns 0x00 (0001ms, 0590ms total)
T10D0 000:621 JLINK_ReadReg(R15 (PC))  returns 0x08000278 (0000ms, 0590ms total)
T10D0 000:621 JLINK_ReadReg(XPSR)  returns 0x01000000 (0000ms, 0590ms total)
T10D0 000:700 JLINK_SetResetType(JLINKARM_RESET_TYPE_NORMAL)  returns JLINKARM_RESET_TYPE_NORMAL (0000ms, 0590ms total)
T10D0 000:700 JLINK_Reset() -- CPU_WriteMem(4 bytes @ 0xE000EDF0) -- CPU_WriteMem(4 bytes @ 0xE000EDFC) >0x35 TIF> -- CPU_WriteMem(4 bytes @ 0xE000ED0C) -- CPU_ReadMem(4 bytes @ 0xE000EDF0) -- CPU_ReadMem(4 bytes @ 0xE000EDF0) -- CPU_WriteMem(4 bytes @ 0xE000EDF0) -- CPU_WriteMem(4 bytes @ 0xE000EDFC) -- CPU is running -- CPU_ReadMem(4 bytes @ 0xE000EDF0) -- CPU_WriteMem(4 bytes @ 0xE0002000) -- CPU_ReadMem(4 bytes @ 0xE000EDFC) -- CPU_ReadMem(4 bytes @ 0xE0001000) (0020ms, 0610ms total)
T10D0 000:720 JLINK_ReadReg(R15 (PC))  returns 0x08000278 (0000ms, 0610ms total)
T10D0 000:720 JLINK_ReadReg(XPSR)  returns 0x01000000 (0000ms, 0610ms total)
T10D0 000:721 JLINK_ReadMem (0x08000278, 0x003C Bytes, ...) -- CPU_ReadMem(128 bytes @ 0x08000240) -- Updating C cache (128 bytes @ 0x08000240) -- Read from C cache (60 bytes @ 0x08000278) - Data: 09 48 80 47 09 48 00 47 FE E7 FE E7 FE E7 FE E7 ...  returns 0x00 (0002ms, 0612ms total)
T10D0 000:951 JLINK_ReadMem (0x40010C00, 0x000C Bytes, ...) -- CPU_ReadMem(12 bytes @ 0x40010C00) - Data: 44 44 48 44 44 44 44 44 00 00 00 00  returns 0x00 (0000ms, 0612ms total)
T10D0 000:951 JLINK_ReadMem (0x40010C0C, 0x0004 Bytes, ...) -- CPU_ReadMem(4 bytes @ 0x40010C0C) - Data: 10 00 00 00  returns 0x00 (0001ms, 0613ms total)
T10D0 000:952 JLINK_ReadMem (0x40010C18, 0x0004 Bytes, ...) -- CPU_ReadMem(4 bytes @ 0x40010C18) - Data: 00 00 00 00  returns 0x00 (0000ms, 0613ms total)
T10D0 001:009 JLINK_ReadMem (0x40005400, 0x0020 Bytes, ...) -- CPU_ReadMem(32 bytes @ 0x40005400) - Data: 00 00 00 00 00 00 00 00 00 00 00 00 00 00 00 00 ...  returns 0x00 (0001ms, 0614ms total)
T10D0 001:010 JLINK_ReadMem (0x40005420, 0x0004 Bytes, ...) -- CPU_ReadMem(4 bytes @ 0x40005420) - Data: 00 00 00 00  returns 0x00 (0000ms, 0614ms total)
T10D0 001:069 JLINK_ReadMem (0x40001000, 0x0004 Bytes, ...) -- CPU_ReadMem(4 bytes @ 0x40001000) - Data: 00 00 00 00  returns 0x00 (0000ms, 0614ms total)
T10D0 001:069 JLINK_ReadMem (0x40001004, 0x0004 Bytes, ...) -- CPU_ReadMem(4 bytes @ 0x40001004) - Data: 00 00 00 00  returns 0x00 (0001ms, 0615ms total)
T10D0 001:070 JLINK_ReadMem (0x4000100C, 0x0004 Bytes, ...) -- CPU_ReadMem(4 bytes @ 0x4000100C) - Data: 00 00 00 00  returns 0x00 (0000ms, 0615ms total)
T10D0 001:071 JLINK_ReadMem (0x40001010, 0x0004 Bytes, ...) -- CPU_ReadMem(4 bytes @ 0x40001010) - Data: 00 00 00 00  returns 0x00 (0000ms, 0616ms total)
T10D0 001:071 JLINK_ReadMem (0x40001024, 0x0008 Bytes, ...) -- CPU_ReadMem(8 bytes @ 0x40001024) - Data: 00 00 00 00 00 00 00 00  returns 0x00 (0001ms, 0617ms total)
T10D0 001:072 JLINK_ReadMem (0x4000102C, 0x0004 Bytes, ...) -- CPU_ReadMem(4 bytes @ 0x4000102C) - Data: 00 00 00 00  returns 0x00 (0000ms, 0617ms total)
T10D0 002:850 JLINK_ReadMem (0x20000018, 0x0001 Bytes, ...) -- CPU_ReadMem(64 bytes @ 0x20000000) -- Updating C cache (64 bytes @ 0x20000000) -- Read from C cache (1 bytes @ 0x20000018) - Data: 00  returns 0x00 (0001ms, 0618ms total)
T10AC 002:882 JLINK_SetBPEx(Addr = 0x08003C98, Type = 0xFFFFFFF2)  returns 0x00000001 (0000ms, 0618ms total)
T10AC 002:882 JLINK_SetBPEx(Addr = 0x08002900, Type = 0xFFFFFFF2)  returns 0x00000002 (0000ms, 0618ms total)
T10AC 002:882 JLINK_SetBPEx(Addr = 0x080028FA, Type = 0xFFFFFFF2)  returns 0x00000003 (0000ms, 0618ms total)
T10AC 002:882 JLINK_SetBPEx(Addr = 0x08003CBE, Type = 0xFFFFFFF2)  returns 0x00000004 (0000ms, 0618ms total)
T10AC 002:882 JLINK_Go() -- CPU_WriteMem(4 bytes @ 0xE0002000) -- CPU_WriteMem(4 bytes @ 0xE0002000) -- CPU_WriteMem(4 bytes @ 0xE0002000) -- CPU_WriteMem(4 bytes @ 0xE0002000) -- CPU_ReadMem(4 bytes @ 0xE0001000) -- CPU_WriteMem(4 bytes @ 0xE0002008) -- CPU_WriteMem(4 bytes @ 0xE000200C) -- CPU_WriteMem(4 bytes @ 0xE0002010) -- CPU_WriteMem(4 bytes @ 0xE0002014) -- CPU_WriteMem(4 bytes @ 0xE0002018) -- CPU_WriteMem(4 bytes @ 0xE000201C) -- CPU_WriteMem(4 bytes @ 0xE0001004) (0007ms, 0625ms total)
T10AC 002:990 JLINK_IsHalted()  returns TRUE (0003ms, 0628ms total)
T10AC 002:993 JLINK_Halt()  returns 0x00 (0000ms, 0625ms total)
T10AC 002:993 JLINK_IsHalted()  returns TRUE (0000ms, 0625ms total)
T10AC 002:993 JLINK_IsHalted()  returns TRUE (0000ms, 0625ms total)
T10AC 002:993 JLINK_IsHalted()  returns TRUE (0000ms, 0625ms total)
T10AC 002:993 JLINK_ReadReg(R15 (PC))  returns 0x08003C98 (0000ms, 0625ms total)
T10AC 002:993 JLINK_ReadReg(XPSR)  returns 0x61000000 (0000ms, 0625ms total)
T10AC 002:993 JLINK_ClrBPEx(BPHandle = 0x00000001)  returns 0x00 (0000ms, 0625ms total)
T10AC 002:993 JLINK_ClrBPEx(BPHandle = 0x00000002)  returns 0x00 (0000ms, 0625ms total)
T10AC 002:993 JLINK_ClrBPEx(BPHandle = 0x00000003)  returns 0x00 (0000ms, 0625ms total)
T10AC 002:993 JLINK_ClrBPEx(BPHandle = 0x00000004)  returns 0x00 (0000ms, 0625ms total)
T10AC 002:993 JLINK_ReadMemU32(0xE000ED30, 0x0001 Items, ...) -- CPU_ReadMem(4 bytes @ 0xE000ED30) - Data: 03 00 00 00  returns 0x01 (0000ms, 0625ms total)
T10AC 002:993 JLINK_ReadMemU32(0xE0001028, 0x0001 Items, ...) -- CPU_ReadMem(4 bytes @ 0xE0001028) - Data: 00 00 00 00  returns 0x01 (0001ms, 0626ms total)
T10AC 002:994 JLINK_ReadMemU32(0xE0001038, 0x0001 Items, ...) -- CPU_ReadMem(4 bytes @ 0xE0001038) - Data: 00 02 00 00  returns 0x01 (0000ms, 0626ms total)
T10AC 002:994 JLINK_ReadMemU32(0xE0001048, 0x0001 Items, ...) -- CPU_ReadMem(4 bytes @ 0xE0001048) - Data: 00 00 00 00  returns 0x01 (0001ms, 0627ms total)
T10AC 002:995 JLINK_ReadMemU32(0xE0001058, 0x0001 Items, ...) -- CPU_ReadMem(4 bytes @ 0xE0001058) - Data: 00 00 00 00  returns 0x01 (0000ms, 0627ms total)
T10AC 002:995 JLINK_ReadReg(R0)  returns 0x20000128 (0001ms, 0628ms total)
T10AC 002:996 JLINK_ReadReg(R1)  returns 0x20000928 (0000ms, 0628ms total)
T10AC 002:996 JLINK_ReadReg(R2)  returns 0x20000928 (0000ms, 0628ms total)
T10AC 002:996 JLINK_ReadReg(R3)  returns 0x20000928 (0000ms, 0628ms total)
T10AC 002:996 JLINK_ReadReg(R4)  returns 0x00000000 (0000ms, 0628ms total)
T10AC 002:996 JLINK_ReadReg(R5)  returns 0x200000C4 (0000ms, 0628ms total)
T10AC 002:996 JLINK_ReadReg(R6)  returns 0x00000000 (0000ms, 0628ms total)
T10AC 002:996 JLINK_ReadReg(R7)  returns 0x00000000 (0000ms, 0628ms total)
T10AC 002:996 JLINK_ReadReg(R8)  returns 0x00000000 (0000ms, 0628ms total)
T10AC 002:996 JLINK_ReadReg(R9)  returns 0x20000160 (0000ms, 0628ms total)
T10AC 002:996 JLINK_ReadReg(R10)  returns 0x0800519C (0000ms, 0628ms total)
T10AC 002:996 JLINK_ReadReg(R11)  returns 0x00000000 (0000ms, 0628ms total)
T10AC 002:996 JLINK_ReadReg(R12)  returns 0x20000104 (0000ms, 0628ms total)
T10AC 002:996 JLINK_ReadReg(R13 (SP))  returns 0x20001128 (0000ms, 0628ms total)
T10AC 002:996 JLINK_ReadReg(R14)  returns 0x08000267 (0000ms, 0628ms total)
T10AC 002:996 JLINK_ReadReg(R15 (PC))  returns 0x08003C98 (0000ms, 0628ms total)
T10AC 002:996 JLINK_ReadReg(XPSR)  returns 0x61000000 (0000ms, 0628ms total)
T10AC 002:996 JLINK_ReadReg(MSP)  returns 0x20001128 (0000ms, 0628ms total)
T10AC 002:996 JLINK_ReadReg(PSP)  returns 0x20001000 (0000ms, 0628ms total)
T10AC 002:996 JLINK_ReadReg(CFBP)  returns 0x00000000 (0000ms, 0628ms total)
T10D0 003:003 JLINK_ReadMemU32(0xE0001004, 0x0001 Items, ...) -- CPU_ReadMem(4 bytes @ 0xE0001004) - Data: 93 27 00 00  returns 0x01 (0001ms, 0629ms total)
T10D0 003:004 JLINK_ReadMem (0x40001000, 0x0004 Bytes, ...) -- CPU_ReadMem(4 bytes @ 0x40001000) - Data: 00 00 00 00  returns 0x00 (0000ms, 0629ms total)
T10D0 003:004 JLINK_ReadMem (0x40001004, 0x0004 Bytes, ...) -- CPU_ReadMem(4 bytes @ 0x40001004) - Data: 00 00 00 00  returns 0x00 (0001ms, 0630ms total)
T10D0 003:005 JLINK_ReadMem (0x4000100C, 0x0004 Bytes, ...) -- CPU_ReadMem(4 bytes @ 0x4000100C) - Data: 00 00 00 00  returns 0x00 (0000ms, 0630ms total)
T10D0 003:005 JLINK_ReadMem (0x40001010, 0x0004 Bytes, ...) -- CPU_ReadMem(4 bytes @ 0x40001010) - Data: 00 00 00 00  returns 0x00 (0001ms, 0631ms total)
T10D0 003:006 JLINK_ReadMem (0x40001024, 0x0008 Bytes, ...) -- CPU_ReadMem(8 bytes @ 0x40001024) - Data: 00 00 00 00 00 00 00 00  returns 0x00 (0001ms, 0632ms total)
T10D0 003:007 JLINK_ReadMem (0x4000102C, 0x0004 Bytes, ...) -- CPU_ReadMem(4 bytes @ 0x4000102C) - Data: 00 00 00 00  returns 0x00 (0000ms, 0632ms total)
T10D0 003:008 JLINK_ReadMem (0x40010C00, 0x000C Bytes, ...) -- CPU_ReadMem(12 bytes @ 0x40010C00) - Data: 44 44 48 44 44 44 44 44 00 00 00 00  returns 0x00 (0000ms, 0632ms total)
T10D0 003:008 JLINK_ReadMem (0x40010C0C, 0x0004 Bytes, ...) -- CPU_ReadMem(4 bytes @ 0x40010C0C) - Data: 10 00 00 00  returns 0x00 (0001ms, 0633ms total)
T10D0 003:009 JLINK_ReadMem (0x40010C18, 0x0004 Bytes, ...) -- CPU_ReadMem(4 bytes @ 0x40010C18) - Data: 00 00 00 00  returns 0x00 (0000ms, 0633ms total)
T10D0 003:010 JLINK_ReadMem (0x40005400, 0x0020 Bytes, ...) -- CPU_ReadMem(32 bytes @ 0x40005400) - Data: 00 00 00 00 00 00 00 00 00 00 00 00 00 00 00 00 ...  returns 0x00 (0000ms, 0633ms total)
T10D0 003:010 JLINK_ReadMem (0x40005420, 0x0004 Bytes, ...) -- CPU_ReadMem(4 bytes @ 0x40005420) - Data: 00 00 00 00  returns 0x00 (0001ms, 0634ms total)
T10D0 003:015 JLINK_ReadMem (0x08003C98, 0x003C Bytes, ...) -- CPU_ReadMem(128 bytes @ 0x08003C80) -- Updating C cache (128 bytes @ 0x08003C80) -- Read from C cache (60 bytes @ 0x08003C98) - Data: FF F7 16 F8 4F F4 16 51 14 48 FF F7 B9 FB 14 A1 ...  returns 0x00 (0001ms, 0635ms total)
T10AC 004:493 JLINK_SetBPEx(Addr = 0x08002900, Type = 0xFFFFFFF2)  returns 0x00000005 (0000ms, 0635ms total)
T10AC 004:493 JLINK_SetBPEx(Addr = 0x080028FA, Type = 0xFFFFFFF2)  returns 0x00000006 (0000ms, 0635ms total)
T10AC 004:493 JLINK_SetBPEx(Addr = 0x08003CBE, Type = 0xFFFFFFF2)  returns 0x00000007 (0000ms, 0635ms total)
T10AC 004:493 JLINK_Go() -- CPU_WriteMem(4 bytes @ 0xE0002000) -- CPU_WriteMem(4 bytes @ 0xE0002000) -- CPU_WriteMem(4 bytes @ 0xE0002000) -- CPU_ReadMem(4 bytes @ 0xE0001000) -- CPU_WriteMem(4 bytes @ 0xE0002008) -- CPU_WriteMem(4 bytes @ 0xE000200C) -- CPU_WriteMem(4 bytes @ 0xE0002010) -- CPU_WriteMem(4 bytes @ 0xE0002014) (0004ms, 0639ms total)
T10AC 004:599 JLINK_IsHalted()  returns TRUE (0003ms, 0642ms total)
T10AC 004:602 JLINK_Halt()  returns 0x00 (0000ms, 0639ms total)
T10AC 004:602 JLINK_IsHalted()  returns TRUE (0000ms, 0639ms total)
T10AC 004:602 JLINK_IsHalted()  returns TRUE (0000ms, 0639ms total)
T10AC 004:602 JLINK_IsHalted()  returns TRUE (0000ms, 0639ms total)
T10AC 004:602 JLINK_ReadReg(R15 (PC))  returns 0x080028FA (0000ms, 0639ms total)
T10AC 004:602 JLINK_ReadReg(XPSR)  returns 0x01000000 (0000ms, 0639ms total)
T10AC 004:602 JLINK_ClrBPEx(BPHandle = 0x00000005)  returns 0x00 (0000ms, 0639ms total)
T10AC 004:602 JLINK_ClrBPEx(BPHandle = 0x00000006)  returns 0x00 (0000ms, 0639ms total)
T10AC 004:602 JLINK_ClrBPEx(BPHandle = 0x00000007)  returns 0x00 (0000ms, 0639ms total)
T10AC 004:602 JLINK_ReadMemU32(0xE000ED30, 0x0001 Items, ...) -- CPU_ReadMem(4 bytes @ 0xE000ED30) - Data: 03 00 00 00  returns 0x01 (0001ms, 0640ms total)
T10AC 004:603 JLINK_ReadMemU32(0xE0001028, 0x0001 Items, ...) -- CPU_ReadMem(4 bytes @ 0xE0001028) - Data: 00 00 00 00  returns 0x01 (0001ms, 0641ms total)
T10AC 004:604 JLINK_ReadMemU32(0xE0001038, 0x0001 Items, ...) -- CPU_ReadMem(4 bytes @ 0xE0001038) - Data: 00 02 00 00  returns 0x01 (0000ms, 0641ms total)
T10AC 004:604 JLINK_ReadMemU32(0xE0001048, 0x0001 Items, ...) -- CPU_ReadMem(4 bytes @ 0xE0001048) - Data: 00 00 00 00  returns 0x01 (0001ms, 0642ms total)
T10AC 004:605 JLINK_ReadMemU32(0xE0001058, 0x0001 Items, ...) -- CPU_ReadMem(4 bytes @ 0xE0001058) - Data: 00 00 00 00  returns 0x01 (0000ms, 0642ms total)
T10AC 004:605 JLINK_ReadReg(R0)  returns 0x00000048 (0000ms, 0642ms total)
T10AC 004:605 JLINK_ReadReg(R1)  returns 0x00000048 (0000ms, 0642ms total)
T10AC 004:605 JLINK_ReadReg(R2)  returns 0x00000009 (0000ms, 0642ms total)
T10AC 004:605 JLINK_ReadReg(R3)  returns 0x200000B0 (0000ms, 0642ms total)
T10AC 004:605 JLINK_ReadReg(R4)  returns 0x00000000 (0000ms, 0642ms total)
T10AC 004:605 JLINK_ReadReg(R5)  returns 0x200000C4 (0000ms, 0642ms total)
T10AC 004:605 JLINK_ReadReg(R6)  returns 0x00000000 (0000ms, 0642ms total)
T10AC 004:605 JLINK_ReadReg(R7)  returns 0x00000000 (0000ms, 0642ms total)
T10AC 004:605 JLINK_ReadReg(R8)  returns 0x00000000 (0000ms, 0642ms total)
T10AC 004:605 JLINK_ReadReg(R9)  returns 0x20000160 (0000ms, 0642ms total)
T10AC 004:605 JLINK_ReadReg(R10)  returns 0x0800519C (0000ms, 0642ms total)
T10AC 004:605 JLINK_ReadReg(R11)  returns 0x00000000 (0000ms, 0642ms total)
T10AC 004:605 JLINK_ReadReg(R12)  returns 0x00000800 (0000ms, 0642ms total)
T10AC 004:605 JLINK_ReadReg(R13 (SP))  returns 0x20001120 (0000ms, 0642ms total)
T10AC 004:605 JLINK_ReadReg(R14)  returns 0x08003CB9 (0001ms, 0643ms total)
T10AC 004:606 JLINK_ReadReg(R15 (PC))  returns 0x080028FA (0000ms, 0643ms total)
T10AC 004:606 JLINK_ReadReg(XPSR)  returns 0x01000000 (0000ms, 0643ms total)
T10AC 004:606 JLINK_ReadReg(MSP)  returns 0x20001120 (0000ms, 0643ms total)
T10AC 004:606 JLINK_ReadReg(PSP)  returns 0x20001000 (0000ms, 0643ms total)
T10AC 004:606 JLINK_ReadReg(CFBP)  returns 0x00000000 (0000ms, 0643ms total)
T10D0 004:607 JLINK_ReadMem (0x20001124, 0x0004 Bytes, ...) -- CPU_ReadMem(64 bytes @ 0x20001100) -- Updating C cache (64 bytes @ 0x20001100) -- Read from C cache (4 bytes @ 0x20001124) - Data: B9 3C 00 08  returns 0x00 (0001ms, 0644ms total)
T10D0 004:608 JLINK_ReadMem (0x20001120, 0x0004 Bytes, ...) -- Read from C cache (4 bytes @ 0x20001120) - Data: 00 00 00 00  returns 0x00 (0000ms, 0644ms total)
T10D0 004:609 JLINK_ReadMemU32(0xE0001004, 0x0001 Items, ...) -- CPU_ReadMem(4 bytes @ 0xE0001004) - Data: 51 32 0F 00  returns 0x01 (0001ms, 0645ms total)
T10D0 004:610 JLINK_ReadMem (0x40001000, 0x0004 Bytes, ...) -- CPU_ReadMem(4 bytes @ 0x40001000) - Data: 00 00 00 00  returns 0x00 (0001ms, 0646ms total)
T10D0 004:611 JLINK_ReadMem (0x40001004, 0x0004 Bytes, ...) -- CPU_ReadMem(4 bytes @ 0x40001004) - Data: 00 00 00 00  returns 0x00 (0000ms, 0646ms total)
T10D0 004:611 JLINK_ReadMem (0x4000100C, 0x0004 Bytes, ...) -- CPU_ReadMem(4 bytes @ 0x4000100C) - Data: 00 00 00 00  returns 0x00 (0001ms, 0647ms total)
T10D0 004:612 JLINK_ReadMem (0x40001010, 0x0004 Bytes, ...) -- CPU_ReadMem(4 bytes @ 0x40001010) - Data: 00 00 00 00  returns 0x00 (0001ms, 0648ms total)
T10D0 004:613 JLINK_ReadMem (0x40001024, 0x0008 Bytes, ...) -- CPU_ReadMem(8 bytes @ 0x40001024) - Data: 00 00 00 00 00 00 00 00  returns 0x00 (0001ms, 0649ms total)
T10D0 004:614 JLINK_ReadMem (0x4000102C, 0x0004 Bytes, ...) -- CPU_ReadMem(4 bytes @ 0x4000102C) - Data: 00 00 00 00  returns 0x00 (0000ms, 0649ms total)
T10D0 004:615 JLINK_ReadMem (0x40010C00, 0x000C Bytes, ...) -- CPU_ReadMem(12 bytes @ 0x40010C00) - Data: 44 44 48 44 44 44 44 44 00 00 00 00  returns 0x00 (0001ms, 0650ms total)
T10D0 004:616 JLINK_ReadMem (0x40010C0C, 0x0004 Bytes, ...) -- CPU_ReadMem(4 bytes @ 0x40010C0C) - Data: 10 00 00 00  returns 0x00 (0000ms, 0650ms total)
T10D0 004:616 JLINK_ReadMem (0x40010C18, 0x0004 Bytes, ...) -- CPU_ReadMem(4 bytes @ 0x40010C18) - Data: 00 00 00 00  returns 0x00 (0001ms, 0651ms total)
T10D0 004:618 JLINK_ReadMem (0x40005400, 0x0020 Bytes, ...) -- CPU_ReadMem(32 bytes @ 0x40005400) - Data: 00 00 00 00 00 00 00 00 00 00 00 00 00 00 00 00 ...  returns 0x00 (0001ms, 0652ms total)
T10D0 004:619 JLINK_ReadMem (0x40005420, 0x0004 Bytes, ...) -- CPU_ReadMem(4 bytes @ 0x40005420) - Data: 00 00 00 00  returns 0x00 (0000ms, 0652ms total)
T10D0 004:628 JLINK_ReadMem (0x080028FA, 0x0002 Bytes, ...) -- CPU_ReadMem(64 bytes @ 0x080028C0) -- Updating C cache (64 bytes @ 0x080028C0) -- Read from C cache (2 bytes @ 0x080028FA) - Data: 12 48  returns 0x00 (0001ms, 0653ms total)
T10D0 004:629 JLINK_ReadMem (0x080028FC, 0x003C Bytes, ...) -- CPU_ReadMem(64 bytes @ 0x08002900) -- Updating C cache (64 bytes @ 0x08002900) -- Read from C cache (60 bytes @ 0x080028FC) - Data: FF F7 30 FC 11 48 01 F0 AB F9 6B 23 00 22 D0 21 ...  returns 0x00 (0001ms, 0654ms total)
T10AC 005:283 JLINK_Step() -- Read from C cache (2 bytes @ 0x080028FA) -- CPU_ReadMem(4 bytes @ 0xE000ED18) -- CPU_WriteMem(4 bytes @ 0xE000ED18) -- CPU_ReadMem(4 bytes @ 0xE000ED18) -- CPU_WriteMem(4 bytes @ 0xE000ED18) -- CPU_ReadMem(64 bytes @ 0x08002940) -- Updating C cache (64 bytes @ 0x08002940) -- Read from C cache (4 bytes @ 0x08002944) -- Simulated  returns 0x00 (0004ms, 0658ms total)
T10AC 005:287 JLINK_ReadReg(R15 (PC))  returns 0x080028FC (0000ms, 0658ms total)
T10AC 005:287 JLINK_ReadReg(XPSR)  returns 0x01000000 (0000ms, 0658ms total)
T10AC 005:287 JLINK_SetBPEx(Addr = 0x08002900, Type = 0xFFFFFFF2)  returns 0x00000008 (0000ms, 0658ms total)
T10AC 005:287 JLINK_SetBPEx(Addr = 0x080028FA, Type = 0xFFFFFFF2)  returns 0x00000009 (0000ms, 0658ms total)
T10AC 005:287 JLINK_SetBPEx(Addr = 0x08003CBE, Type = 0xFFFFFFF2)  returns 0x0000000A (0000ms, 0658ms total)
T10AC 005:287 JLINK_Go() -- CPU_WriteMem(4 bytes @ 0xE0002000) -- CPU_WriteMem(4 bytes @ 0xE0002000) -- CPU_WriteMem(4 bytes @ 0xE0002000) -- CPU_ReadMem(4 bytes @ 0xE0001000) -- CPU_WriteMem(4 bytes @ 0xE0001004) (0004ms, 0662ms total)
T10AC 005:391 JLINK_IsHalted()  returns FALSE (0000ms, 0662ms total)
T10AC 005:492 JLINK_IsHalted()  returns FALSE (0000ms, 0662ms total)
T10AC 005:594 JLINK_IsHalted()  returns FALSE (0000ms, 0662ms total)
T10AC 005:695 JLINK_IsHalted()  returns FALSE (0000ms, 0662ms total)
T10AC 005:796 JLINK_ReadMemU32(0xE0001004, 0x0001 Items, ...) -- CPU is running -- CPU_ReadMem(4 bytes @ 0xE0001004) - Data: 29 04 3B 02  returns 0x01 (0000ms, 0662ms total)
T10D0 005:797 JLINK_ReadMem (0x40001000, 0x0004 Bytes, ...) -- CPU is running -- CPU_ReadMem(4 bytes @ 0x40001000) - Data: 00 00 00 00  returns 0x00 (0001ms, 0663ms total)
T10D0 005:798 JLINK_ReadMem (0x40001004, 0x0004 Bytes, ...) -- CPU is running -- CPU_ReadMem(4 bytes @ 0x40001004) - Data: 00 00 00 00  returns 0x00 (0001ms, 0664ms total)
T10D0 005:799 JLINK_ReadMem (0x4000100C, 0x0004 Bytes, ...) -- CPU is running -- CPU_ReadMem(4 bytes @ 0x4000100C) - Data: 00 00 00 00  returns 0x00 (0001ms, 0665ms total)
T10D0 005:800 JLINK_ReadMem (0x40001010, 0x0004 Bytes, ...) -- CPU is running -- CPU_ReadMem(4 bytes @ 0x40001010) - Data: 00 00 00 00  returns 0x00 (0000ms, 0665ms total)
T10D0 005:800 JLINK_ReadMem (0x40001024, 0x0008 Bytes, ...) -- CPU is running -- CPU_ReadMem(8 bytes @ 0x40001024) - Data: 00 00 00 00 00 00 00 00  returns 0x00 (0001ms, 0666ms total)
T10D0 005:801 JLINK_ReadMem (0x4000102C, 0x0004 Bytes, ...) -- CPU is running -- CPU_ReadMem(4 bytes @ 0x4000102C) - Data: 00 00 00 00  returns 0x00 (0005ms, 0671ms total)
T10D0 005:807 JLINK_ReadMem (0x40010C00, 0x000C Bytes, ...) -- CPU is running -- CPU_ReadMem(12 bytes @ 0x40010C00) - Data: 44 44 48 77 44 44 44 44 13 F3 00 00  returns 0x00 (0001ms, 0672ms total)
T10D0 005:808 JLINK_ReadMem (0x40010C0C, 0x0004 Bytes, ...) -- CPU is running -- CPU_ReadMem(4 bytes @ 0x40010C0C) - Data: 50 00 00 00  returns 0x00 (0001ms, 0673ms total)
T10D0 005:809 JLINK_ReadMem (0x40010C18, 0x0004 Bytes, ...) -- CPU is running -- CPU_ReadMem(4 bytes @ 0x40010C18) - Data: 00 00 00 00  returns 0x00 (0000ms, 0673ms total)
T10D0 005:830 JLINK_ReadMem (0x40005400, 0x0020 Bytes, ...) -- CPU is running -- CPU_ReadMem(32 bytes @ 0x40005400) - Data: 01 04 00 00 24 06 00 00 00 40 00 00 00 00 00 00 ...  returns 0x00 (0001ms, 0674ms total)
T10D0 005:831 JLINK_ReadMem (0x40005420, 0x0004 Bytes, ...) -- CPU is running -- CPU_ReadMem(4 bytes @ 0x40005420) - Data: 25 00 00 00  returns 0x00 (0001ms, 0675ms total)
T10AC 005:836 JLINK_IsHalted()  returns FALSE (0001ms, 0676ms total)
T10AC 005:938 JLINK_IsHalted()  returns FALSE (0000ms, 0675ms total)
T10AC 006:039 JLINK_IsHalted()  returns FALSE (0000ms, 0675ms total)
T10AC 006:140 JLINK_IsHalted()  returns FALSE (0000ms, 0675ms total)
T10AC 006:242 JLINK_IsHalted()  returns FALSE (0000ms, 0675ms total)
T10AC 006:343 JLINK_ReadMemU32(0xE0001004, 0x0001 Items, ...) -- CPU is running -- CPU_ReadMem(4 bytes @ 0xE0001004) - Data: 7D 41 93 04  returns 0x01 (0000ms, 0675ms total)
T10D0 006:346 JLINK_ReadMem (0x40001000, 0x0004 Bytes, ...) -- CPU is running -- CPU_ReadMem(4 bytes @ 0x40001000) - Data: 00 00 00 00  returns 0x00 (0001ms, 0676ms total)
T10D0 006:347 JLINK_ReadMem (0x40001004, 0x0004 Bytes, ...) -- CPU is running -- CPU_ReadMem(4 bytes @ 0x40001004) - Data: 00 00 00 00  returns 0x00 (0001ms, 0677ms total)
T10D0 006:348 JLINK_ReadMem (0x4000100C, 0x0004 Bytes, ...) -- CPU is running -- CPU_ReadMem(4 bytes @ 0x4000100C) - Data: 00 00 00 00  returns 0x00 (0001ms, 0678ms total)
T10D0 006:349 JLINK_ReadMem (0x40001010, 0x0004 Bytes, ...) -- CPU is running -- CPU_ReadMem(4 bytes @ 0x40001010) - Data: 00 00 00 00  returns 0x00 (0000ms, 0678ms total)
T10D0 006:349 JLINK_ReadMem (0x40001024, 0x0008 Bytes, ...) -- CPU is running -- CPU_ReadMem(8 bytes @ 0x40001024) - Data: 00 00 00 00 00 00 00 00  returns 0x00 (0000ms, 0678ms total)
T10D0 006:349 JLINK_ReadMem (0x4000102C, 0x0004 Bytes, ...) -- CPU is running -- CPU_ReadMem(4 bytes @ 0x4000102C) - Data: 00 00 00 00  returns 0x00 (0001ms, 0679ms total)
T10D0 006:352 JLINK_ReadMem (0x40010C00, 0x000C Bytes, ...) -- CPU is running -- CPU_ReadMem(12 bytes @ 0x40010C00) - Data: 44 44 48 77 44 44 44 44 13 F3 00 00  returns 0x00 (0002ms, 0681ms total)
T10D0 006:354 JLINK_ReadMem (0x40010C0C, 0x0004 Bytes, ...) -- CPU is running -- CPU_ReadMem(4 bytes @ 0x40010C0C) - Data: 10 00 00 00  returns 0x00 (0000ms, 0681ms total)
T10D0 006:354 JLINK_ReadMem (0x40010C18, 0x0004 Bytes, ...) -- CPU is running -- CPU_ReadMem(4 bytes @ 0x40010C18) - Data: 00 00 00 00  returns 0x00 (0001ms, 0682ms total)
T10D0 006:361 JLINK_ReadMem (0x40005400, 0x0020 Bytes, ...) -- CPU is running -- CPU_ReadMem(32 bytes @ 0x40005400) - Data: 01 04 00 00 24 06 00 00 00 40 00 00 00 00 00 00 ...  returns 0x00 (0001ms, 0683ms total)
T10D0 006:362 JLINK_ReadMem (0x40005420, 0x0004 Bytes, ...) -- CPU is running -- CPU_ReadMem(4 bytes @ 0x40005420) - Data: 25 00 00 00  returns 0x00 (0001ms, 0684ms total)
T10AC 006:366 JLINK_IsHalted()  returns FALSE (0000ms, 0684ms total)
T10AC 006:467 JLINK_IsHalted()  returns FALSE (0000ms, 0684ms total)
T10AC 006:568 JLINK_IsHalted()  returns FALSE (0000ms, 0684ms total)
T10AC 006:669 JLINK_IsHalted()  returns FALSE (0000ms, 0684ms total)
T10AC 006:770 JLINK_IsHalted()  returns FALSE (0000ms, 0684ms total)
T10AC 006:872 JLINK_ReadMemU32(0xE0001004, 0x0001 Items, ...) -- CPU is running -- CPU_ReadMem(4 bytes @ 0xE0001004) - Data: 94 4E D8 06  returns 0x01 (0000ms, 0684ms total)
T10D0 006:873 JLINK_ReadMem (0x40001000, 0x0004 Bytes, ...) -- CPU is running -- CPU_ReadMem(4 bytes @ 0x40001000) - Data: 00 00 00 00  returns 0x00 (0000ms, 0684ms total)
T10D0 006:873 JLINK_ReadMem (0x40001004, 0x0004 Bytes, ...) -- CPU is running -- CPU_ReadMem(4 bytes @ 0x40001004) - Data: 00 00 00 00  returns 0x00 (0001ms, 0685ms total)
T10D0 006:874 JLINK_ReadMem (0x4000100C, 0x0004 Bytes, ...) -- CPU is running -- CPU_ReadMem(4 bytes @ 0x4000100C) - Data: 00 00 00 00  returns 0x00 (0000ms, 0685ms total)
T10D0 006:874 JLINK_ReadMem (0x40001010, 0x0004 Bytes, ...) -- CPU is running -- CPU_ReadMem(4 bytes @ 0x40001010) - Data: 00 00 00 00  returns 0x00 (0001ms, 0686ms total)
T10D0 006:875 JLINK_ReadMem (0x40001024, 0x0008 Bytes, ...) -- CPU is running -- CPU_ReadMem(8 bytes @ 0x40001024) - Data: 00 00 00 00 00 00 00 00  returns 0x00 (0001ms, 0687ms total)
T10D0 006:876 JLINK_ReadMem (0x4000102C, 0x0004 Bytes, ...) -- CPU is running -- CPU_ReadMem(4 bytes @ 0x4000102C) - Data: 00 00 00 00  returns 0x00 (0000ms, 0687ms total)
T10D0 006:878 JLINK_ReadMem (0x40010C00, 0x000C Bytes, ...) -- CPU is running -- CPU_ReadMem(12 bytes @ 0x40010C00) - Data: 44 44 48 77 44 44 44 44 53 F3 00 00  returns 0x00 (0001ms, 0688ms total)
T10D0 006:879 JLINK_ReadMem (0x40010C0C, 0x0004 Bytes, ...) -- CPU is running -- CPU_ReadMem(4 bytes @ 0x40010C0C) - Data: 10 00 00 00  returns 0x00 (0000ms, 0688ms total)
T10D0 006:879 JLINK_ReadMem (0x40010C18, 0x0004 Bytes, ...) -- CPU is running -- CPU_ReadMem(4 bytes @ 0x40010C18) - Data: 00 00 00 00  returns 0x00 (0002ms, 0690ms total)
T10D0 006:883 JLINK_ReadMem (0x40005400, 0x0020 Bytes, ...) -- CPU is running -- CPU_ReadMem(32 bytes @ 0x40005400) - Data: 01 04 00 00 24 06 00 00 00 40 00 00 00 00 00 00 ...  returns 0x00 (0001ms, 0691ms total)
T10D0 006:884 JLINK_ReadMem (0x40005420, 0x0004 Bytes, ...) -- CPU is running -- CPU_ReadMem(4 bytes @ 0x40005420) - Data: 25 00 00 00  returns 0x00 (0000ms, 0691ms total)
T10AC 006:885 JLINK_IsHalted()  returns FALSE (0000ms, 0691ms total)
T10AC 006:986 JLINK_IsHalted()  returns FALSE (0001ms, 0692ms total)
T10AC 007:087 JLINK_IsHalted()  returns FALSE (0000ms, 0691ms total)
T10AC 007:189 JLINK_IsHalted()  returns FALSE (0000ms, 0691ms total)
T10AC 007:290 JLINK_IsHalted()  returns FALSE (0000ms, 0691ms total)
T10AC 007:391 JLINK_ReadMemU32(0xE0001004, 0x0001 Items, ...) -- CPU is running -- CPU_ReadMem(4 bytes @ 0xE0001004) - Data: 09 95 12 09  returns 0x01 (0000ms, 0691ms total)
T10D0 007:395 JLINK_ReadMem (0x40001000, 0x0004 Bytes, ...) -- CPU is running -- CPU_ReadMem(4 bytes @ 0x40001000) - Data: 00 00 00 00  returns 0x00 (0001ms, 0692ms total)
T10D0 007:396 JLINK_ReadMem (0x40001004, 0x0004 Bytes, ...) -- CPU is running -- CPU_ReadMem(4 bytes @ 0x40001004) - Data: 00 00 00 00  returns 0x00 (0000ms, 0692ms total)
T10D0 007:396 JLINK_ReadMem (0x4000100C, 0x0004 Bytes, ...) -- CPU is running -- CPU_ReadMem(4 bytes @ 0x4000100C) - Data: 00 00 00 00  returns 0x00 (0001ms, 0693ms total)
T10D0 007:397 JLINK_ReadMem (0x40001010, 0x0004 Bytes, ...) -- CPU is running -- CPU_ReadMem(4 bytes @ 0x40001010) - Data: 00 00 00 00  returns 0x00 (0000ms, 0693ms total)
T10D0 007:397 JLINK_ReadMem (0x40001024, 0x0008 Bytes, ...) -- CPU is running -- CPU_ReadMem(8 bytes @ 0x40001024) - Data: 00 00 00 00 00 00 00 00  returns 0x00 (0001ms, 0694ms total)
T10D0 007:398 JLINK_ReadMem (0x4000102C, 0x0004 Bytes, ...) -- CPU is running -- CPU_ReadMem(4 bytes @ 0x4000102C) - Data: 00 00 00 00  returns 0x00 (0001ms, 0695ms total)
T10D0 007:400 JLINK_ReadMem (0x40010C00, 0x000C Bytes, ...) -- CPU is running -- CPU_ReadMem(12 bytes @ 0x40010C00) - Data: 44 44 48 77 44 44 44 44 13 F3 00 00  returns 0x00 (0000ms, 0695ms total)
T10D0 007:400 JLINK_ReadMem (0x40010C0C, 0x0004 Bytes, ...) -- CPU is running -- CPU_ReadMem(4 bytes @ 0x40010C0C) - Data: 50 00 00 00  returns 0x00 (0001ms, 0696ms total)
T10D0 007:401 JLINK_ReadMem (0x40010C18, 0x0004 Bytes, ...) -- CPU is running -- CPU_ReadMem(4 bytes @ 0x40010C18) - Data: 00 00 00 00  returns 0x00 (0001ms, 0697ms total)
T10D0 007:413 JLINK_ReadMem (0x40005400, 0x0020 Bytes, ...) -- CPU is running -- CPU_ReadMem(32 bytes @ 0x40005400) - Data: 01 04 00 00 24 06 00 00 00 40 00 00 00 00 00 00 ...  returns 0x00 (0001ms, 0698ms total)
T10D0 007:414 JLINK_ReadMem (0x40005420, 0x0004 Bytes, ...) -- CPU is running -- CPU_ReadMem(4 bytes @ 0x40005420) - Data: 25 00 00 00  returns 0x00 (0000ms, 0698ms total)
T10AC 007:415 JLINK_IsHalted()  returns FALSE (0001ms, 0699ms total)
T10AC 007:517 JLINK_IsHalted()  returns FALSE (0001ms, 0699ms total)
T10AC 007:619 JLINK_IsHalted()  returns FALSE (0000ms, 0698ms total)
T10AC 007:720 JLINK_IsHalted()  returns FALSE (0000ms, 0698ms total)
T10AC 007:821 JLINK_IsHalted()  returns FALSE (0000ms, 0698ms total)
T10AC 007:923 JLINK_ReadMemU32(0xE0001004, 0x0001 Items, ...) -- CPU is running -- CPU_ReadMem(4 bytes @ 0xE0001004) - Data: 66 AA 5B 0B  returns 0x01 (0001ms, 0699ms total)
T10D0 007:933 JLINK_ReadMem (0x40001000, 0x0004 Bytes, ...) -- CPU is running -- CPU_ReadMem(4 bytes @ 0x40001000) - Data: 00 00 00 00  returns 0x00 (0001ms, 0700ms total)
T10D0 007:934 JLINK_ReadMem (0x40001004, 0x0004 Bytes, ...) -- CPU is running -- CPU_ReadMem(4 bytes @ 0x40001004) - Data: 00 00 00 00  returns 0x00 (0001ms, 0701ms total)
T10D0 007:935 JLINK_ReadMem (0x4000100C, 0x0004 Bytes, ...) -- CPU is running -- CPU_ReadMem(4 bytes @ 0x4000100C) - Data: 00 00 00 00  returns 0x00 (0001ms, 0702ms total)
T10D0 007:936 JLINK_ReadMem (0x40001010, 0x0004 Bytes, ...) -- CPU is running -- CPU_ReadMem(4 bytes @ 0x40001010) - Data: 00 00 00 00  returns 0x00 (0001ms, 0703ms total)
T10D0 007:937 JLINK_ReadMem (0x40001024, 0x0008 Bytes, ...) -- CPU is running -- CPU_ReadMem(8 bytes @ 0x40001024) - Data: 00 00 00 00 00 00 00 00  returns 0x00 (0001ms, 0704ms total)
T10D0 007:938 JLINK_ReadMem (0x4000102C, 0x0004 Bytes, ...) -- CPU is running -- CPU_ReadMem(4 bytes @ 0x4000102C) - Data: 00 00 00 00  returns 0x00 (0000ms, 0704ms total)
T10D0 007:948 JLINK_ReadMem (0x40010C00, 0x000C Bytes, ...) -- CPU is running -- CPU_ReadMem(12 bytes @ 0x40010C00) - Data: 44 44 48 77 44 44 44 44 13 F3 00 00  returns 0x00 (0001ms, 0705ms total)
T10D0 007:949 JLINK_ReadMem (0x40010C0C, 0x0004 Bytes, ...) -- CPU is running -- CPU_ReadMem(4 bytes @ 0x40010C0C) - Data: 50 00 00 00  returns 0x00 (0001ms, 0706ms total)
T10D0 007:950 JLINK_ReadMem (0x40010C18, 0x0004 Bytes, ...) -- CPU is running -- CPU_ReadMem(4 bytes @ 0x40010C18) - Data: 00 00 00 00  returns 0x00 (0001ms, 0707ms total)
T10D0 007:961 JLINK_ReadMem (0x40005400, 0x0020 Bytes, ...) -- CPU is running -- CPU_ReadMem(32 bytes @ 0x40005400) - Data: 01 04 00 00 24 06 00 00 00 40 00 00 00 00 00 00 ...  returns 0x00 (0001ms, 0708ms total)
T10D0 007:962 JLINK_ReadMem (0x40005420, 0x0004 Bytes, ...) -- CPU is running -- CPU_ReadMem(4 bytes @ 0x40005420) - Data: 25 00 00 00  returns 0x00 (0001ms, 0709ms total)
T10AC 007:972 JLINK_IsHalted()  returns FALSE (0000ms, 0709ms total)
T10AC 008:074 JLINK_IsHalted()  returns FALSE (0000ms, 0709ms total)
T10AC 008:176 JLINK_IsHalted()  returns FALSE (0000ms, 0709ms total)
T10AC 008:277 JLINK_IsHalted()  returns FALSE (0000ms, 0709ms total)
T10AC 008:379 JLINK_IsHalted()  returns FALSE (0000ms, 0709ms total)
T10AC 008:480 JLINK_ReadMemU32(0xE0001004, 0x0001 Items, ...) -- CPU is running -- CPU_ReadMem(4 bytes @ 0xE0001004) - Data: 8A 2F C0 0D  returns 0x01 (0000ms, 0709ms total)
T10D0 008:484 JLINK_ReadMem (0x40001000, 0x0004 Bytes, ...) -- CPU is running -- CPU_ReadMem(4 bytes @ 0x40001000) - Data: 00 00 00 00  returns 0x00 (0001ms, 0710ms total)
T10D0 008:485 JLINK_ReadMem (0x40001004, 0x0004 Bytes, ...) -- CPU is running -- CPU_ReadMem(4 bytes @ 0x40001004) - Data: 00 00 00 00  returns 0x00 (0001ms, 0711ms total)
T10D0 008:486 JLINK_ReadMem (0x4000100C, 0x0004 Bytes, ...) -- CPU is running -- CPU_ReadMem(4 bytes @ 0x4000100C) - Data: 00 00 00 00  returns 0x00 (0000ms, 0711ms total)
T10D0 008:486 JLINK_ReadMem (0x40001010, 0x0004 Bytes, ...) -- CPU is running -- CPU_ReadMem(4 bytes @ 0x40001010) - Data: 00 00 00 00  returns 0x00 (0001ms, 0712ms total)
T10D0 008:487 JLINK_ReadMem (0x40001024, 0x0008 Bytes, ...) -- CPU is running -- CPU_ReadMem(8 bytes @ 0x40001024) - Data: 00 00 00 00 00 00 00 00  returns 0x00 (0001ms, 0713ms total)
T10D0 008:488 JLINK_ReadMem (0x4000102C, 0x0004 Bytes, ...) -- CPU is running -- CPU_ReadMem(4 bytes @ 0x4000102C) - Data: 00 00 00 00  returns 0x00 (0000ms, 0713ms total)
T10D0 008:490 JLINK_ReadMem (0x40010C00, 0x000C Bytes, ...) -- CPU is running -- CPU_ReadMem(12 bytes @ 0x40010C00) - Data: 44 44 48 77 44 44 44 44 53 F3 00 00  returns 0x00 (0000ms, 0713ms total)
T10D0 008:490 JLINK_ReadMem (0x40010C0C, 0x0004 Bytes, ...) -- CPU is running -- CPU_ReadMem(4 bytes @ 0x40010C0C) - Data: 50 00 00 00  returns 0x00 (0001ms, 0714ms total)
T10D0 008:491 JLINK_ReadMem (0x40010C18, 0x0004 Bytes, ...) -- CPU is running -- CPU_ReadMem(4 bytes @ 0x40010C18) - Data: 00 00 00 00  returns 0x00 (0000ms, 0714ms total)
T10D0 008:506 JLINK_ReadMem (0x40005400, 0x0020 Bytes, ...) -- CPU is running -- CPU_ReadMem(32 bytes @ 0x40005400) - Data: 01 04 00 00 24 06 00 00 00 40 00 00 00 00 00 00 ...  returns 0x00 (0001ms, 0715ms total)
T10D0 008:507 JLINK_ReadMem (0x40005420, 0x0004 Bytes, ...) -- CPU is running -- CPU_ReadMem(4 bytes @ 0x40005420) - Data: 25 00 00 00  returns 0x00 (0000ms, 0715ms total)
T10AC 008:509 JLINK_IsHalted()  returns FALSE (0001ms, 0716ms total)
T10AC 008:610 JLINK_IsHalted()  returns FALSE (0000ms, 0715ms total)
T10AC 008:712 JLINK_IsHalted()  returns FALSE (0000ms, 0715ms total)
T10AC 008:812 JLINK_IsHalted()  returns FALSE (0001ms, 0716ms total)
T10AC 008:914 JLINK_IsHalted()  returns FALSE (0000ms, 0715ms total)
T10AC 009:014 JLINK_ReadMemU32(0xE0001004, 0x0001 Items, ...) -- CPU is running -- CPU_ReadMem(4 bytes @ 0xE0001004) - Data: 84 C5 0A 10  returns 0x01 (0001ms, 0716ms total)
T10D0 009:017 JLINK_ReadMem (0x40001000, 0x0004 Bytes, ...) -- CPU is running -- CPU_ReadMem(4 bytes @ 0x40001000) - Data: 00 00 00 00  returns 0x00 (0001ms, 0717ms total)
T10D0 009:018 JLINK_ReadMem (0x40001004, 0x0004 Bytes, ...) -- CPU is running -- CPU_ReadMem(4 bytes @ 0x40001004) - Data: 00 00 00 00  returns 0x00 (0000ms, 0717ms total)
T10D0 009:018 JLINK_ReadMem (0x4000100C, 0x0004 Bytes, ...) -- CPU is running -- CPU_ReadMem(4 bytes @ 0x4000100C) - Data: 00 00 00 00  returns 0x00 (0001ms, 0718ms total)
T10D0 009:019 JLINK_ReadMem (0x40001010, 0x0004 Bytes, ...) -- CPU is running -- CPU_ReadMem(4 bytes @ 0x40001010) - Data: 00 00 00 00  returns 0x00 (0001ms, 0719ms total)
T10D0 009:020 JLINK_ReadMem (0x40001024, 0x0008 Bytes, ...) -- CPU is running -- CPU_ReadMem(8 bytes @ 0x40001024) - Data: 00 00 00 00 00 00 00 00  returns 0x00 (0000ms, 0719ms total)
T10D0 009:020 JLINK_ReadMem (0x4000102C, 0x0004 Bytes, ...) -- CPU is running -- CPU_ReadMem(4 bytes @ 0x4000102C) - Data: 00 00 00 00  returns 0x00 (0001ms, 0720ms total)
T10D0 009:021 JLINK_ReadMem (0x40010C00, 0x000C Bytes, ...) -- CPU is running -- CPU_ReadMem(12 bytes @ 0x40010C00) - Data: 44 44 48 77 44 44 44 44 53 F3 00 00  returns 0x00 (0000ms, 0720ms total)
T10D0 009:021 JLINK_ReadMem (0x40010C0C, 0x0004 Bytes, ...) -- CPU is running -- CPU_ReadMem(4 bytes @ 0x40010C0C) - Data: 10 00 00 00  returns 0x00 (0001ms, 0721ms total)
T10D0 009:022 JLINK_ReadMem (0x40010C18, 0x0004 Bytes, ...) -- CPU is running -- CPU_ReadMem(4 bytes @ 0x40010C18) - Data: 00 00 00 00  returns 0x00 (0001ms, 0722ms total)
T10D0 009:025 JLINK_ReadMem (0x40005400, 0x0020 Bytes, ...) -- CPU is running -- CPU_ReadMem(32 bytes @ 0x40005400) - Data: 01 04 00 00 24 06 00 00 00 40 00 00 00 00 00 00 ...  returns 0x00 (0001ms, 0723ms total)
T10D0 009:026 JLINK_ReadMem (0x40005420, 0x0004 Bytes, ...) -- CPU is running -- CPU_ReadMem(4 bytes @ 0x40005420) - Data: 25 00 00 00  returns 0x00 (0000ms, 0723ms total)
T10AC 009:028 JLINK_IsHalted()  returns FALSE (0000ms, 0723ms total)
T10AC 009:129 JLINK_IsHalted()  returns FALSE (0000ms, 0723ms total)
T10AC 009:229 JLINK_IsHalted()  returns FALSE (0001ms, 0724ms total)
T10D0 009:241 JLINK_SetResetType(JLINKARM_RESET_TYPE_NORMAL)  returns JLINKARM_RESET_TYPE_NORMAL (0000ms, 0723ms total)
T10D0 009:241 JLINK_ResetNoHalt() >0x108 TIF>Found SWD-DP with ID 0x1BA01477 >0x0D TIF> >0x28 TIF> >0x0D TIF> >0x28 TIF> >0x0D TIF> >0x28 TIF> >0x0D TIF> >0x28 TIF> >0x0D TIF> >0x21 TIF> >0x0D TIF> >0x28 TIF> >0x0D TIF> >0x28 TIF> >0x0D TIF> >0x28 TIF> >0x0D TIF> >0x21 TIF> >0x0D TIF> >0x21 TIF> >0x0D TIF> >0x28 TIF> >0x0D TIF> >0x21 TIF> >0x0D TIF> >0x21 TIF> >0x0D TIF> >0x28 TIF> >0x0D TIF> >0x21 TIF> >0x0D TIF> >0x21 TIF> >0x0D TIF> >0x28 TIF> >0x0D TIF> >0x21 TIF> >0x0D TIF> >0x21 TIF> >0x108 TIF>
Found SWD-DP with ID 0x1BA01477 >0x0D TIF> >0x28 TIF> >0x0D TIF> >0x28 TIF> >0x0D TIF> >0x28 TIF> >0x0D TIF> >0x28 TIF> >0x0D TIF> >0x21 TIF> >0x0D TIF> >0x28 TIF> >0x0D TIF> >0x28 TIF> >0x0D TIF> >0x21 TIF> >0x0D TIF> >0x21 TIF> >0x0D TIF> >0x21 TIF> >0x0D TIF> >0x28 TIF> >0x0D TIF> >0x28 TIF> >0x0D TIF> >0x28 TIF> >0x0D TIF> >0x21 TIF> >0x0D TIF> >0x21 TIF> >0x0D TIF> >0x28 TIF> >0x0D TIF> >0x21 TIF> >0x0D TIF> >0x21 TIF>Found Cortex-M3 r1p1, Little endian. -- CPU_ReadMem(4 bytes @ 0xE000EDF0)
 -- CPU_ReadMem(4 bytes @ 0xE0002000)FPUnit: 6 code (BP) slots and 2 literal slots -- CPU_ReadMem(4 bytes @ 0xE000EDFC) -- CPU_ReadMem(4 bytes @ 0xE0001000) -- CPU_WriteMem(4 bytes @ 0xE0001000) -- CPU_ReadMem(4 bytes @ 0xE000ED88) -- CPU_WriteMem(4 bytes @ 0xE000ED88) -- CPU_ReadMem(4 bytes @ 0xE000ED88) -- CPU_WriteMem(4 bytes @ 0xE000ED88)CoreSight components:ROMTbl 0 @ E00FF000 -- CPU_ReadMem(16 bytes @ 0xE00FF000) -- CPU_ReadMem(16 bytes @ 0xE000EFF0) -- CPU_ReadMem(16 bytes @ 0xE000EFE0)
ROMTbl 0 [0]: FFF0F000, CID: B105E00D, PID: 001BB000 SCS -- CPU_ReadMem(16 bytes @ 0xE0001FF0) -- CPU_ReadMem(16 bytes @ 0xE0001FE0)ROMTbl 0 [1]: FFF02000, CID: B105E00D, PID: 001BB002 DWT -- CPU_ReadMem(16 bytes @ 0xE0002FF0) -- CPU_ReadMem(16 bytes @ 0xE0002FE0)ROMTbl 0 [2]: FFF03000, CID: B105E00D, PID: 000BB003 FPB -- CPU_ReadMem(16 bytes @ 0xE0000FF0) -- CPU_ReadMem(16 bytes @ 0xE0000FE0)ROMTbl 0 [3]: FFF01000, CID: B105E00D, PID: 001BB001 ITM -- CPU_ReadMem(16 bytes @ 0xE00FF010)
 -- CPU_ReadMem(16 bytes @ 0xE0040FF0) -- CPU_ReadMem(16 bytes @ 0xE0040FE0)ROMTbl 0 [4]: FFF41000, CID: B105900D, PID: 001BB923 TPIU-Lite -- CPU_ReadMem(16 bytes @ 0xE0041FF0) -- CPU_ReadMem(16 bytes @ 0xE0041FE0)ROMTbl 0 [5]: FFF42000, CID: B105900D, PID: 101BB924 ETM-M3
                JLINK_Reset() -- CPU is running -- CPU_WriteMem(4 bytes @ 0xE000EDF0) -- CPU is running -- CPU_WriteMem(4 bytes @ 0xE000EDFC) >0x35 TIF> -- CPU is running -- CPU_WriteMem(4 bytes @ 0xE000ED0C) -- CPU is running -- CPU_ReadMem(4 bytes @ 0xE000EDF0) -- CPU is running -- CPU_ReadMem(4 bytes @ 0xE000EDF0) -- CPU is running -- CPU_WriteMem(4 bytes @ 0xE000EDF0) -- CPU is running -- CPU_WriteMem(4 bytes @ 0xE000EDFC) -- CPU is running -- CPU_ReadMem(4 bytes @ 0xE000EDF0)
 -- CPU_WriteMem(4 bytes @ 0xE0002000) -- CPU_ReadMem(4 bytes @ 0xE000EDFC) -- CPU_ReadMem(4 bytes @ 0xE0001000) (0021ms, 0021ms total)
                JLINK_Go() -- CPU_WriteMem(4 bytes @ 0xE0002000) -- CPU_WriteMem(4 bytes @ 0xE0002000) -- CPU_WriteMem(4 bytes @ 0xE0002000) -- CPU_ReadMem(4 bytes @ 0xE0001000) -- CPU_WriteMem(4 bytes @ 0xE0002008) -- CPU_WriteMem(4 bytes @ 0xE000200C) -- CPU_WriteMem(4 bytes @ 0xE0002010) -- CPU_WriteMem(4 bytes @ 0xE0002014) -- CPU_WriteMem(4 bytes @ 0xE0002018) -- CPU_WriteMem(4 bytes @ 0xE000201C) -- CPU_WriteMem(4 bytes @ 0xE0001004) (0005ms, 0027ms total)
               (0057ms, 0780ms total)
T10AC 009:331 JLINK_IsHalted()  returns TRUE (0002ms, 0782ms total)
T10AC 009:333 JLINK_Halt()  returns 0x00 (0000ms, 0780ms total)
T10AC 009:333 JLINK_IsHalted()  returns TRUE (0000ms, 0780ms total)
T10AC 009:333 JLINK_IsHalted()  returns TRUE (0000ms, 0780ms total)
T10AC 009:333 JLINK_IsHalted()  returns TRUE (0000ms, 0780ms total)
T10AC 009:333 JLINK_ReadReg(R15 (PC))  returns 0x080028FA (0000ms, 0780ms total)
T10AC 009:333 JLINK_ReadReg(XPSR)  returns 0x01000000 (0000ms, 0780ms total)
T10AC 009:333 JLINK_ClrBPEx(BPHandle = 0x00000008)  returns 0x00 (0000ms, 0780ms total)
T10AC 009:333 JLINK_ClrBPEx(BPHandle = 0x00000009)  returns 0x00 (0000ms, 0780ms total)
T10AC 009:333 JLINK_ClrBPEx(BPHandle = 0x0000000A)  returns 0x00 (0000ms, 0780ms total)
T10AC 009:333 JLINK_ReadMemU32(0xE000ED30, 0x0001 Items, ...) -- CPU_ReadMem(4 bytes @ 0xE000ED30) - Data: 03 00 00 00  returns 0x01 (0001ms, 0781ms total)
T10AC 009:334 JLINK_ReadMemU32(0xE0001028, 0x0001 Items, ...) -- CPU_ReadMem(4 bytes @ 0xE0001028) - Data: 00 00 00 00  returns 0x01 (0001ms, 0782ms total)
T10AC 009:335 JLINK_ReadMemU32(0xE0001038, 0x0001 Items, ...) -- CPU_ReadMem(4 bytes @ 0xE0001038) - Data: 00 02 00 00  returns 0x01 (0000ms, 0782ms total)
T10AC 009:335 JLINK_ReadMemU32(0xE0001048, 0x0001 Items, ...) -- CPU_ReadMem(4 bytes @ 0xE0001048) - Data: 00 00 00 00  returns 0x01 (0000ms, 0782ms total)
T10AC 009:335 JLINK_ReadMemU32(0xE0001058, 0x0001 Items, ...) -- CPU_ReadMem(4 bytes @ 0xE0001058) - Data: 00 00 00 00  returns 0x01 (0002ms, 0784ms total)
T10AC 009:337 JLINK_ReadReg(R0)  returns 0x00000048 (0000ms, 0784ms total)
T10AC 009:337 JLINK_ReadReg(R1)  returns 0x00000048 (0000ms, 0784ms total)
T10AC 009:337 JLINK_ReadReg(R2)  returns 0x00000009 (0000ms, 0784ms total)
T10AC 009:337 JLINK_ReadReg(R3)  returns 0x200000B0 (0000ms, 0784ms total)
T10AC 009:337 JLINK_ReadReg(R4)  returns 0x00000000 (0000ms, 0784ms total)
T10AC 009:337 JLINK_ReadReg(R5)  returns 0x200000C4 (0000ms, 0784ms total)
T10AC 009:337 JLINK_ReadReg(R6)  returns 0x00000000 (0000ms, 0784ms total)
T10AC 009:337 JLINK_ReadReg(R7)  returns 0x00000000 (0000ms, 0784ms total)
T10AC 009:337 JLINK_ReadReg(R8)  returns 0x00000000 (0000ms, 0784ms total)
T10AC 009:337 JLINK_ReadReg(R9)  returns 0x20000160 (0000ms, 0784ms total)
T10AC 009:337 JLINK_ReadReg(R10)  returns 0x0800519C (0000ms, 0784ms total)
T10AC 009:337 JLINK_ReadReg(R11)  returns 0x00000000 (0000ms, 0784ms total)
T10AC 009:337 JLINK_ReadReg(R12)  returns 0x00000800 (0000ms, 0784ms total)
T10AC 009:337 JLINK_ReadReg(R13 (SP))  returns 0x20001120 (0000ms, 0784ms total)
T10AC 009:337 JLINK_ReadReg(R14)  returns 0x08003CB9 (0000ms, 0784ms total)
T10AC 009:337 JLINK_ReadReg(R15 (PC))  returns 0x080028FA (0000ms, 0784ms total)
T10AC 009:337 JLINK_ReadReg(XPSR)  returns 0x01000000 (0000ms, 0784ms total)
T10AC 009:337 JLINK_ReadReg(MSP)  returns 0x20001120 (0000ms, 0784ms total)
T10AC 009:337 JLINK_ReadReg(PSP)  returns 0x20001000 (0000ms, 0784ms total)
T10AC 009:337 JLINK_ReadReg(CFBP)  returns 0x00000000 (0000ms, 0784ms total)
T10D0 009:337 JLINK_ReadMem (0x20001124, 0x0004 Bytes, ...) -- CPU_ReadMem(64 bytes @ 0x20001100) -- Updating C cache (64 bytes @ 0x20001100) -- Read from C cache (4 bytes @ 0x20001124) - Data: B9 3C 00 08  returns 0x00 (0001ms, 0785ms total)
T10D0 009:338 JLINK_ReadMem (0x20001120, 0x0004 Bytes, ...) -- Read from C cache (4 bytes @ 0x20001120) - Data: 00 00 00 00  returns 0x00 (0000ms, 0785ms total)
T10D0 009:338 JLINK_ReadMemU32(0xE0001004, 0x0001 Items, ...) -- CPU_ReadMem(4 bytes @ 0xE0001004) - Data: C0 1F 0F 00  returns 0x01 (0001ms, 0786ms total)
T10D0 009:339 JLINK_ReadMem (0x40001000, 0x0004 Bytes, ...) -- CPU_ReadMem(4 bytes @ 0x40001000) - Data: 00 00 00 00  returns 0x00 (0001ms, 0787ms total)
T10D0 009:340 JLINK_ReadMem (0x40001004, 0x0004 Bytes, ...) -- CPU_ReadMem(4 bytes @ 0x40001004) - Data: 00 00 00 00  returns 0x00 (0000ms, 0787ms total)
